
T12C4 000:064 SEGGER J-Link V4.62 Log File (0001ms, 0065ms total)
T12C4 000:064 DLL Compiled: Jan 25 2013 15:19:47 (0001ms, 0065ms total)
T12C4 000:064 Logging started @ 2016-10-20 23:47 (0001ms, 0065ms total)
T12C4 000:065 JLINK_SetWarnOutHandler(...) (0000ms, 0065ms total)
T12C4 000:065 JLINK_OpenEx(...)
Firmware: J-Link ARM V8 compiled Nov 28 2014 13:44:46
Hardware: V8.00
S/N: 17935099
Feature(s): RDI,FlashDL,FlashBP,JFlash  returns O.K. (0025ms, 0090ms total)
T12C4 000:090 JLINK_SetErrorOutHandler(...) (0000ms, 0090ms total)
T12C4 000:090 JLINK_ExecCommand("ProjectFile = "G:\×ÊÁÏÅÌ\stm32Ñ§Ï°\motor\Template-103V£¨PWM£©\user\JLinkSettings.ini"", ...)  returns 0x00 (0000ms, 0090ms total)
T12C4 000:095 JLINK_ExecCommand("Device = STM32F103VB", ...)
                JLINK_ExecCommand("map ram 0x20000000 - 0x20004FFF", ...)  returns 0x00 (0000ms, 0000ms total)
                JLINK_AddMirrorAreaEx(Addr = 0x00000000, Size = 0x00000000) (0000ms, 0000ms total)
              Device "STM32F103VB" selected (128 KB flash, 20 KB RAM).  returns 0x00 (0003ms, 0093ms total)
T12C4 000:098 JLINK_ExecCommand("DisableConnectionTimeout", ...)  returns 0x00 (0000ms, 0093ms total)
T12C4 000:098 JLINK_TIF_Select(JLINKARM_TIF_JTAG)  returns 0x00 (0001ms, 0094ms total)
T12C4 000:099 JLINK_SetSpeed(2000) (0000ms, 0094ms total)
T12C4 000:099 JLINK_GetHardwareVersion()  returns 0x13880 (0000ms, 0094ms total)
T12C4 000:099 JLINK_GetDLLVersion()  returns 46200 (0000ms, 0094ms total)
T12C4 000:099 JLINK_GetFirmwareString(...) (0000ms, 0094ms total)
T12C4 000:107 JLINK_GetDLLVersion()  returns 46200 (0000ms, 0094ms total)
T12C4 000:107 JLINK_GetCompileDateTime() (0000ms, 0094ms total)
T12C4 000:108 JLINK_GetFirmwareString(...) (0000ms, 0094ms total)
T12C4 000:109 JLINK_GetHardwareVersion()  returns 0x13880 (0000ms, 0094ms total)
T12C4 000:114 JLINK_GetIdData(...) >0x2F8 JTAG>TotalIRLen = 9, IRPrint = 0x0011 >0x30 JTAG> >0x210 JTAG> >0x40 JTAG> >0x40 JTAG> >0x40 JTAG> >0x30 JTAG> >0x40 JTAG> >0x40 JTAG> >0x40 JTAG> >0x40 JTAG> >0x40 JTAG> >0x40 JTAG> >0x40 JTAG> >0x40 JTAG> >0x2F8 JTAG>TotalIRLen = 9, IRPrint = 0x0011 >0x30 JTAG> >0x210 JTAG> >0x80 JTAG> >0x40 JTAG> >0x40 JTAG> >0x50 JTAG> >0x40 JTAG> >0x40 JTAG> >0x40 JTAG> >0x50 JTAG> >0x40 JTAG> >0x40 JTAG> >0x40 JTAG> >0x30 JTAG> >0x40 JTAG> >0x50 JTAG> >0x40 JTAG>
 >0x38 JTAG> >0x80 JTAG> >0x40 JTAG> >0x40 JTAG> >0x50 JTAG> >0x40 JTAG> >0x40 JTAG> >0x40 JTAG> >0x50 JTAG> >0x40 JTAG> >0x40 JTAG> >0x30 JTAG> >0x40 JTAG> >0x40 JTAG> >0x40 JTAG> >0x40 JTAG> >0x40 JTAG> >0x50 JTAG> >0x40 JTAG> >0x80 JTAG> >0x40 JTAG> >0x30 JTAG> >0x40 JTAG> >0x40 JTAG> >0x40 JTAG> >0x40 JTAG> >0x40 JTAG> >0x50 JTAG> >0x40 JTAG> >0x80 JTAG> >0x40 JTAG> >0x30 JTAG> >0x40 JTAG> >0x50 JTAG> >0x40 JTAG> >0x40 JTAG> >0x40 JTAG> >0x30 JTAG> >0x40 JTAG> >0x50 JTAG> >0x40 JTAG>
Found Cortex-M3 r1p1, Little endian. >0x50 JTAG> >0x50 JTAG> >0x40 JTAG> >0x40 JTAG> >0x30 JTAG> >0x30 JTAG> >0x50 JTAG> >0x40 JTAG> >0x80 JTAG> >0x40 JTAG> >0x30 JTAG> >0x40 JTAG> >0x50 JTAG> >0x40 JTAG> >0x40 JTAG> >0x40 JTAG> >0x30 JTAG> >0x40 JTAG> >0x50 JTAG> >0x40 JTAG>TPIU fitted. >0x40 JTAG> >0x40 JTAG> >0x30 JTAG> >0x40 JTAG> >0x50 JTAG> >0x40 JTAG> >0x40 JTAG> >0x40 JTAG> >0x30 JTAG> >0x40 JTAG> >0x50 JTAG> >0x40 JTAG> >0x40 JTAG> >0x40 JTAG> >0x30 JTAG> >0x40 JTAG> >0x50 JTAG> >0x40 JTAG>
FPUnit: 6 code (BP) slots and 2 literal slots >0x40 JTAG> >0x40 JTAG> >0x30 JTAG> >0x40 JTAG> >0x50 JTAG> >0x40 JTAG> >0x40 JTAG> >0x40 JTAG> >0x30 JTAG> >0x40 JTAG> >0x50 JTAG> >0x40 JTAG> >0x40 JTAG> >0x40 JTAG> >0x30 JTAG> >0x30 JTAG> >0x50 JTAG> >0x40 JTAG> ScanLen=9 NumDevices=2 aId[0]=0x3BA00477 aIrRead[0]=0 aScanLen[0]=0 aScanRead[0]=0 (0141ms, 0235ms total)
T12C4 000:255 JLINK_JTAG_GetDeviceID(DeviceIndex = 0)  returns 0x3BA00477 (0000ms, 0235ms total)
T12C4 000:255 JLINK_JTAG_GetDeviceInfo(DeviceIndex = 0)  returns 0x00 (0000ms, 0235ms total)
T12C4 000:255 JLINK_JTAG_GetDeviceID(DeviceIndex = 1)  returns 0x16410041 (0000ms, 0235ms total)
T12C4 000:255 JLINK_JTAG_GetDeviceInfo(DeviceIndex = 1)  returns 0x00 (0000ms, 0235ms total)
T12C4 000:255 JLINK_GetDeviceFamily()  returns 3 (0000ms, 0235ms total)
T12C4 000:257 JLINK_ReadMem (0xE00FFFF0, 0x0010 Bytes, ...) -- CPU is running -- CPU_ReadMem(16 bytes @ 0xE00FFFF0) -- Data:  0D 00 00 00 10 00 00 00 05 00 00 00 B1 00 00 00  returns 0x00 (0004ms, 0239ms total)
T12C4 000:261 JLINK_ReadMem (0xE00FFFD0, 0x0020 Bytes, ...) -- CPU is running -- CPU_ReadMem(32 bytes @ 0xE00FFFD0) -- Data:  00 00 00 00 00 00 00 00 00 00 00 00 00 00 00 00 ...  returns 0x00 (0001ms, 0240ms total)
T12C4 000:262 JLINK_ReadMem (0xE00FF000, 0x0018 Bytes, ...) -- CPU is running -- CPU_ReadMem(24 bytes @ 0xE00FF000) -- Data:  03 F0 F0 FF 03 20 F0 FF 03 30 F0 FF 03 10 F0 FF ...  returns 0x00 (0001ms, 0241ms total)
T12C4 000:263 JLINK_ReadMemU32(0xE000ED00, 0x0001 Items, ...) -- CPU is running -- CPU_ReadMem(4 bytes @ 0xE000ED00) -- Data:  31 C2 1F 41  returns 0x01 (0001ms, 0242ms total)
T12C4 000:264 JLINK_SetResetType(JLINKARM_RESET_TYPE_NORMAL)  returns JLINKARM_RESET_TYPE_NORMAL (0000ms, 0242ms total)
T12C4 000:264 JLINK_Reset() >0x88 JTAG> >0x80 JTAG> >0x40 JTAG> >0x40 JTAG> >0x50 JTAG> >0x40 JTAG> >0x40 JTAG> >0x40 JTAG> >0x50 JTAG> >0x40 JTAG> >0x40 JTAG> >0x30 JTAG> >0x40 JTAG> >0x40 JTAG> >0x40 JTAG> >0x40 JTAG> >0x40 JTAG> >0x50 JTAG> >0x40 JTAG> >0x80 JTAG> >0x40 JTAG> >0x30 JTAG> >0x40 JTAG> >0x40 JTAG> >0x40 JTAG> >0x40 JTAG> >0x40 JTAG> >0x50 JTAG> >0x40 JTAG> >0x80 JTAG> >0x40 JTAG> >0x30 JTAG> >0x40 JTAG> >0x50 JTAG> >0x40 JTAG> >0x40 JTAG> >0x40 JTAG> >0x30 JTAG> >0x40 JTAG> >0x50 JTAG>
 >0x40 JTAG>Found Cortex-M3 r1p1, Little endian. >0x50 JTAG> >0x50 JTAG> >0x40 JTAG> >0x40 JTAG> >0x30 JTAG> >0x30 JTAG> >0x50 JTAG> >0x40 JTAG> >0x80 JTAG> >0x40 JTAG> >0x30 JTAG> >0x40 JTAG> >0x50 JTAG> >0x40 JTAG> >0x40 JTAG> >0x40 JTAG> >0x30 JTAG> >0x40 JTAG> >0x50 JTAG> >0x40 JTAG>TPIU fitted. >0x40 JTAG> >0x40 JTAG> >0x30 JTAG> >0x40 JTAG> >0x50 JTAG> >0x40 JTAG> >0x40 JTAG> >0x40 JTAG> >0x30 JTAG> >0x40 JTAG> >0x50 JTAG> >0x40 JTAG> >0x40 JTAG> >0x40 JTAG> >0x30 JTAG> >0x40 JTAG> >0x50 JTAG>
 >0x40 JTAG>FPUnit: 6 code (BP) slots and 2 literal slots >0x40 JTAG> >0x40 JTAG> >0x30 JTAG> >0x40 JTAG> >0x50 JTAG> >0x40 JTAG> >0x40 JTAG> >0x40 JTAG> >0x30 JTAG> >0x40 JTAG> >0x50 JTAG> >0x40 JTAG> >0x40 JTAG> >0x40 JTAG> >0x30 JTAG> >0x30 JTAG> >0x50 JTAG> >0x40 JTAG> -- CPU is running -- CPU_WriteMem(4 bytes @ 0xE000EDF0) -- CPU is running -- CPU_WriteMem(4 bytes @ 0xE000EDFC) -- CPU is running -- CPU_WriteMem(4 bytes @ 0xE000ED0C) -- CPU is running -- CPU_ReadMem(4 bytes @ 0xE000EDF0)
 -- CPU is running -- CPU_ReadMem(4 bytes @ 0xE000EDF0) -- CPU is running -- CPU_WriteMem(4 bytes @ 0xE000EDF0) -- CPU is running -- CPU_WriteMem(4 bytes @ 0xE000EDFC) -- CPU is running -- CPU_ReadMem(4 bytes @ 0xE000EDF0) >0xD0 JTAG> >0x40 JTAG> >0x30 JTAG> >0x40 JTAG> >0x50 JTAG> >0x40 JTAG> -- CPU_WriteMem(4 bytes @ 0xE000EDFC) -- CPU_WriteMem(4 bytes @ 0xE0001028) -- CPU_WriteMem(4 bytes @ 0xE0001038) -- CPU_WriteMem(4 bytes @ 0xE0001048) -- CPU_WriteMem(4 bytes @ 0xE0001058)
 -- CPU_WriteMem(4 bytes @ 0xE0002000) (0149ms, 0391ms total)
T12C4 000:413 JLINK_Halt()  returns 0x00 (0000ms, 0391ms total)
T12C4 000:413 JLINK_IsHalted()  returns TRUE (0000ms, 0391ms total)
T12C4 000:413 JLINK_ReadMemU32(0xE000EDF0, 0x0001 Items, ...) -- CPU_ReadMem(4 bytes @ 0xE000EDF0) -- Data:  03 00 03 00  returns 0x01 (0001ms, 0392ms total)
T12C4 000:414 JLINK_WriteU32(0xE000EDF0, 0xA05F0003) -- CPU_WriteMem(4 bytes @ 0xE000EDF0)  returns 0x00 (0001ms, 0393ms total)
T12C4 000:415 JLINK_WriteU32(0xE000EDFC, 0x01000000) -- CPU_WriteMem(4 bytes @ 0xE000EDFC)  returns 0x00 (0001ms, 0394ms total)
T12C4 000:426 JLINK_GetHWStatus(...)  returns 0x00 (0001ms, 0395ms total)
T12C4 000:436 JLINK_GetNumBPUnits(Type = 0xFFFFFF00)  returns 0x06 (0000ms, 0395ms total)
T12C4 000:436 JLINK_GetNumBPUnits(Type = 0xF0)  returns 0x2000 (0000ms, 0395ms total)
T12C4 000:436 JLINK_GetNumWPUnits()  returns 0x04 (0000ms, 0395ms total)
T12C4 000:443 JLINK_GetSpeed()  returns 0x7D0 (0000ms, 0395ms total)
T12C4 000:449 JLINK_ReadMemU32(0xE000E004, 0x0001 Items, ...) -- CPU_ReadMem(4 bytes @ 0xE000E004) -- Data:  01 00 00 00  returns 0x01 (0001ms, 0396ms total)
T12C4 000:450 JLINK_ReadMemU32(0xE000E004, 0x0001 Items, ...) -- CPU_ReadMem(4 bytes @ 0xE000E004) -- Data:  01 00 00 00  returns 0x01 (0001ms, 0397ms total)
T12C4 000:451 JLINK_WriteMem(0xE0001000, 0x001C Bytes, ...) -- Data:  01 00 00 00 00 00 00 00 00 00 00 00 00 00 00 00 ... -- CPU_WriteMem(28 bytes @ 0xE0001000)  returns 0x1C (0001ms, 0398ms total)
T12C4 000:452 JLINK_ReadMem (0xE0001000, 0x001C Bytes, ...) -- CPU_ReadMem(28 bytes @ 0xE0001000) -- Data:  01 00 00 40 00 00 00 00 00 00 00 00 00 00 00 00 ...  returns 0x00 (0001ms, 0399ms total)
T12C4 000:453 JLINK_Halt()  returns 0x00 (0000ms, 0399ms total)
T12C4 000:453 JLINK_IsHalted()  returns TRUE (0000ms, 0399ms total)
T12C4 000:471 JLINK_WriteMem(0x20000000, 0x0164 Bytes, ...) -- Data:  00 BE 0A E0 0D 78 2D 06 68 40 08 24 40 00 00 D3 ... -- CPU_WriteMem(356 bytes @ 0x20000000)  returns 0x164 (0003ms, 0402ms total)
T12C4 000:474 JLINK_WriteReg(R0, 0x08000000)  returns 0x00 (0000ms, 0402ms total)
T12C4 000:474 JLINK_WriteReg(R1, 0x007A1200)  returns 0x00 (0000ms, 0402ms total)
T12C4 000:474 JLINK_WriteReg(R2, 0x00000001)  returns 0x00 (0000ms, 0402ms total)
T12C4 000:474 JLINK_WriteReg(R3, 0x00000000)  returns 0x00 (0000ms, 0402ms total)
T12C4 000:474 JLINK_WriteReg(R4, 0x00000000)  returns 0x00 (0000ms, 0402ms total)
T12C4 000:474 JLINK_WriteReg(R5, 0x00000000)  returns 0x00 (0000ms, 0402ms total)
T12C4 000:474 JLINK_WriteReg(R6, 0x00000000)  returns 0x00 (0000ms, 0402ms total)
T12C4 000:474 JLINK_WriteReg(R7, 0x00000000)  returns 0x00 (0000ms, 0402ms total)
T12C4 000:474 JLINK_WriteReg(R8, 0x00000000)  returns 0x00 (0000ms, 0402ms total)
T12C4 000:474 JLINK_WriteReg(R9, 0x20000160)  returns 0x00 (0000ms, 0402ms total)
T12C4 000:474 JLINK_WriteReg(R10, 0x00000000)  returns 0x00 (0000ms, 0402ms total)
T12C4 000:474 JLINK_WriteReg(R11, 0x00000000)  returns 0x00 (0000ms, 0402ms total)
T12C4 000:474 JLINK_WriteReg(R12, 0x00000000)  returns 0x00 (0000ms, 0402ms total)
T12C4 000:474 JLINK_WriteReg(R13, 0x20000800)  returns 0x00 (0000ms, 0402ms total)
T12C4 000:474 JLINK_WriteReg(R14, 0x20000001)  returns 0x00 (0000ms, 0402ms total)
T12C4 000:474 JLINK_WriteReg(R15, 0x20000038)  returns 0x00 (0000ms, 0402ms total)
T12C4 000:474 JLINK_WriteReg(XPSR, 0x01000000)  returns 0x00 (0000ms, 0402ms total)
T12C4 000:474 JLINK_WriteReg(MSP, 0x20000800)  returns 0x00 (0000ms, 0402ms total)
T12C4 000:474 JLINK_WriteReg(PSP, 0x20000800)  returns 0x00 (0000ms, 0402ms total)
T12C4 000:474 JLINK_WriteReg(CFBP, 0x00000000)  returns 0x00 (0000ms, 0402ms total)
T12C4 000:474 JLINK_SetBPEx(Addr = 0x20000000, Type = 0xFFFFFFF2) -- CPU_ReadMem(2 bytes @ 0x20000000)  returns 0x00000001 (0001ms, 0403ms total)
T12C4 000:475 JLINK_Go() -- CPU_WriteMem(2 bytes @ 0x20000000) -- CPU_WriteMem(4 bytes @ 0xE0002008) -- CPU_WriteMem(4 bytes @ 0xE000200C) -- CPU_WriteMem(4 bytes @ 0xE0002010) -- CPU_WriteMem(4 bytes @ 0xE0002014) -- CPU_WriteMem(4 bytes @ 0xE0002018) -- CPU_WriteMem(4 bytes @ 0xE000201C) (0010ms, 0413ms total)
T12C4 000:485 JLINK_IsHalted() -- CPU_ReadMem(2 bytes @ 0x20000000)  returns TRUE (0006ms, 0419ms total)
T12C4 000:491 JLINK_ReadReg(R15)  returns 0x20000000 (0000ms, 0413ms total)
T12C4 000:491 JLINK_ClrBPEx(BPHandle = 0x00000001)  returns 0x00 (0000ms, 0413ms total)
T12C4 000:491 JLINK_ReadReg(R0)  returns 0x00000000 (0000ms, 0413ms total)
T12C4 000:491 JLINK_WriteReg(R0, 0x08000000)  returns 0x00 (0000ms, 0413ms total)
T12C4 000:491 JLINK_WriteReg(R1, 0x007A1200)  returns 0x00 (0000ms, 0413ms total)
T12C4 000:491 JLINK_WriteReg(R2, 0x00000001)  returns 0x00 (0000ms, 0413ms total)
T12C4 000:491 JLINK_WriteReg(R3, 0x00000000)  returns 0x00 (0000ms, 0413ms total)
T12C4 000:491 JLINK_WriteReg(R4, 0x00000000)  returns 0x00 (0000ms, 0413ms total)
T12C4 000:491 JLINK_WriteReg(R5, 0x00000000)  returns 0x00 (0000ms, 0413ms total)
T12C4 000:491 JLINK_WriteReg(R6, 0x00000000)  returns 0x00 (0000ms, 0413ms total)
T12C4 000:491 JLINK_WriteReg(R7, 0x00000000)  returns 0x00 (0000ms, 0413ms total)
T12C4 000:491 JLINK_WriteReg(R8, 0x00000000)  returns 0x00 (0000ms, 0413ms total)
T12C4 000:491 JLINK_WriteReg(R9, 0x20000160)  returns 0x00 (0000ms, 0413ms total)
T12C4 000:491 JLINK_WriteReg(R10, 0x00000000)  returns 0x00 (0000ms, 0413ms total)
T12C4 000:491 JLINK_WriteReg(R11, 0x00000000)  returns 0x00 (0000ms, 0413ms total)
T12C4 000:491 JLINK_WriteReg(R12, 0x00000000)  returns 0x00 (0000ms, 0413ms total)
T12C4 000:491 JLINK_WriteReg(R13, 0x20000800)  returns 0x00 (0000ms, 0413ms total)
T12C4 000:491 JLINK_WriteReg(R14, 0x20000001)  returns 0x00 (0000ms, 0413ms total)
T12C4 000:491 JLINK_WriteReg(R15, 0x2000007C)  returns 0x00 (0000ms, 0413ms total)
T12C4 000:491 JLINK_WriteReg(XPSR, 0x01000000)  returns 0x00 (0000ms, 0413ms total)
T12C4 000:491 JLINK_WriteReg(MSP, 0x20000800)  returns 0x00 (0000ms, 0413ms total)
T12C4 000:491 JLINK_WriteReg(PSP, 0x20000800)  returns 0x00 (0000ms, 0413ms total)
T12C4 000:491 JLINK_WriteReg(CFBP, 0x00000000)  returns 0x00 (0000ms, 0413ms total)
T12C4 000:491 JLINK_SetBPEx(Addr = 0x20000000, Type = 0xFFFFFFF2)  returns 0x00000002 (0000ms, 0413ms total)
T12C4 000:491 JLINK_Go() (0003ms, 0416ms total)
T12C4 000:494 JLINK_IsHalted()  returns FALSE (0001ms, 0417ms total)
T12C4 000:520 JLINK_IsHalted() -- CPU_ReadMem(2 bytes @ 0x20000000)  returns TRUE (0006ms, 0422ms total)
T12C4 000:526 JLINK_ReadReg(R15)  returns 0x20000000 (0000ms, 0416ms total)
T12C4 000:526 JLINK_ClrBPEx(BPHandle = 0x00000002)  returns 0x00 (0000ms, 0416ms total)
T12C4 000:526 JLINK_ReadReg(R0)  returns 0x00000000 (0000ms, 0416ms total)
T12C4 000:577 JLINK_WriteReg(R0, 0x00000001)  returns 0x00 (0000ms, 0416ms total)
T12C4 000:577 JLINK_WriteReg(R1, 0x007A1200)  returns 0x00 (0000ms, 0416ms total)
T12C4 000:577 JLINK_WriteReg(R2, 0x00000001)  returns 0x00 (0000ms, 0416ms total)
T12C4 000:577 JLINK_WriteReg(R3, 0x00000000)  returns 0x00 (0000ms, 0416ms total)
T12C4 000:577 JLINK_WriteReg(R4, 0x00000000)  returns 0x00 (0000ms, 0416ms total)
T12C4 000:577 JLINK_WriteReg(R5, 0x00000000)  returns 0x00 (0000ms, 0416ms total)
T12C4 000:577 JLINK_WriteReg(R6, 0x00000000)  returns 0x00 (0000ms, 0416ms total)
T12C4 000:577 JLINK_WriteReg(R7, 0x00000000)  returns 0x00 (0000ms, 0416ms total)
T12C4 000:577 JLINK_WriteReg(R8, 0x00000000)  returns 0x00 (0000ms, 0416ms total)
T12C4 000:577 JLINK_WriteReg(R9, 0x20000160)  returns 0x00 (0000ms, 0416ms total)
T12C4 000:577 JLINK_WriteReg(R10, 0x00000000)  returns 0x00 (0000ms, 0416ms total)
T12C4 000:577 JLINK_WriteReg(R11, 0x00000000)  returns 0x00 (0000ms, 0416ms total)
T12C4 000:577 JLINK_WriteReg(R12, 0x00000000)  returns 0x00 (0000ms, 0416ms total)
T12C4 000:577 JLINK_WriteReg(R13, 0x20000800)  returns 0x00 (0000ms, 0416ms total)
T12C4 000:577 JLINK_WriteReg(R14, 0x20000001)  returns 0x00 (0000ms, 0416ms total)
T12C4 000:577 JLINK_WriteReg(R15, 0x2000006A)  returns 0x00 (0000ms, 0416ms total)
T12C4 000:577 JLINK_WriteReg(XPSR, 0x01000000)  returns 0x00 (0000ms, 0416ms total)
T12C4 000:577 JLINK_WriteReg(MSP, 0x20000800)  returns 0x00 (0000ms, 0416ms total)
T12C4 000:577 JLINK_WriteReg(PSP, 0x20000800)  returns 0x00 (0000ms, 0416ms total)
T12C4 000:577 JLINK_WriteReg(CFBP, 0x00000000)  returns 0x00 (0000ms, 0416ms total)
T12C4 000:577 JLINK_SetBPEx(Addr = 0x20000000, Type = 0xFFFFFFF2)  returns 0x00000003 (0000ms, 0416ms total)
T12C4 000:577 JLINK_Go() (0003ms, 0419ms total)
T12C4 000:580 JLINK_IsHalted() -- CPU_ReadMem(2 bytes @ 0x20000000)  returns TRUE (0006ms, 0425ms total)
T12C4 000:586 JLINK_ReadReg(R15)  returns 0x20000000 (0000ms, 0419ms total)
T12C4 000:586 JLINK_ClrBPEx(BPHandle = 0x00000003)  returns 0x00 (0000ms, 0419ms total)
T12C4 000:586 JLINK_ReadReg(R0)  returns 0x00000000 (0000ms, 0419ms total)
T12C4 000:594 JLINK_WriteMem(0x20000000, 0x0164 Bytes, ...) -- Data:  00 BE 0A E0 0D 78 2D 06 68 40 08 24 40 00 00 D3 ... -- CPU_WriteMem(356 bytes @ 0x20000000)  returns 0x164 (0004ms, 0423ms total)
T12C4 000:598 JLINK_WriteReg(R0, 0x08000000)  returns 0x00 (0000ms, 0423ms total)
T12C4 000:598 JLINK_WriteReg(R1, 0x007A1200)  returns 0x00 (0000ms, 0423ms total)
T12C4 000:598 JLINK_WriteReg(R2, 0x00000002)  returns 0x00 (0000ms, 0423ms total)
T12C4 000:598 JLINK_WriteReg(R3, 0x00000000)  returns 0x00 (0000ms, 0423ms total)
T12C4 000:598 JLINK_WriteReg(R4, 0x00000000)  returns 0x00 (0000ms, 0423ms total)
T12C4 000:598 JLINK_WriteReg(R5, 0x00000000)  returns 0x00 (0000ms, 0423ms total)
T12C4 000:598 JLINK_WriteReg(R6, 0x00000000)  returns 0x00 (0000ms, 0423ms total)
T12C4 000:598 JLINK_WriteReg(R7, 0x00000000)  returns 0x00 (0000ms, 0423ms total)
T12C4 000:598 JLINK_WriteReg(R8, 0x00000000)  returns 0x00 (0000ms, 0423ms total)
T12C4 000:598 JLINK_WriteReg(R9, 0x20000160)  returns 0x00 (0000ms, 0423ms total)
T12C4 000:598 JLINK_WriteReg(R10, 0x00000000)  returns 0x00 (0000ms, 0423ms total)
T12C4 000:598 JLINK_WriteReg(R11, 0x00000000)  returns 0x00 (0000ms, 0423ms total)
T12C4 000:598 JLINK_WriteReg(R12, 0x00000000)  returns 0x00 (0000ms, 0423ms total)
T12C4 000:598 JLINK_WriteReg(R13, 0x20000800)  returns 0x00 (0000ms, 0423ms total)
T12C4 000:598 JLINK_WriteReg(R14, 0x20000001)  returns 0x00 (0000ms, 0423ms total)
T12C4 000:598 JLINK_WriteReg(R15, 0x20000038)  returns 0x00 (0000ms, 0423ms total)
T12C4 000:598 JLINK_WriteReg(XPSR, 0x01000000)  returns 0x00 (0000ms, 0423ms total)
T12C4 000:598 JLINK_WriteReg(MSP, 0x20000800)  returns 0x00 (0000ms, 0423ms total)
T12C4 000:598 JLINK_WriteReg(PSP, 0x20000800)  returns 0x00 (0000ms, 0423ms total)
T12C4 000:598 JLINK_WriteReg(CFBP, 0x00000000)  returns 0x00 (0000ms, 0423ms total)
T12C4 000:598 JLINK_SetBPEx(Addr = 0x20000000, Type = 0xFFFFFFF2) -- CPU_ReadMem(2 bytes @ 0x20000000)  returns 0x00000004 (0002ms, 0425ms total)
T12C4 000:600 JLINK_Go() -- CPU_WriteMem(2 bytes @ 0x20000000) (0003ms, 0428ms total)
T12C4 000:603 JLINK_IsHalted() -- CPU_ReadMem(2 bytes @ 0x20000000)  returns TRUE (0006ms, 0434ms total)
T12C4 000:609 JLINK_ReadReg(R15)  returns 0x20000000 (0000ms, 0428ms total)
T12C4 000:609 JLINK_ClrBPEx(BPHandle = 0x00000004)  returns 0x00 (0000ms, 0428ms total)
T12C4 000:609 JLINK_ReadReg(R0)  returns 0x00000000 (0000ms, 0428ms total)
T12C4 000:609 JLINK_WriteMem(0x20000164, 0x0400 Bytes, ...) -- Data:  30 04 00 20 45 01 00 08 81 1D 00 08 83 1D 00 08 ... -- CPU_WriteMem(1024 bytes @ 0x20000164)  returns 0x400 (0007ms, 0435ms total)
T12C4 000:616 JLINK_WriteReg(R0, 0x08000000)  returns 0x00 (0000ms, 0435ms total)
T12C4 000:616 JLINK_WriteReg(R1, 0x00000400)  returns 0x00 (0000ms, 0435ms total)
T12C4 000:616 JLINK_WriteReg(R2, 0x20000164)  returns 0x00 (0000ms, 0435ms total)
T12C4 000:616 JLINK_WriteReg(R3, 0x00000000)  returns 0x00 (0000ms, 0435ms total)
T12C4 000:616 JLINK_WriteReg(R4, 0x00000000)  returns 0x00 (0000ms, 0435ms total)
T12C4 000:616 JLINK_WriteReg(R5, 0x00000000)  returns 0x00 (0000ms, 0435ms total)
T12C4 000:616 JLINK_WriteReg(R6, 0x00000000)  returns 0x00 (0000ms, 0435ms total)
T12C4 000:616 JLINK_WriteReg(R7, 0x00000000)  returns 0x00 (0000ms, 0435ms total)
T12C4 000:616 JLINK_WriteReg(R8, 0x00000000)  returns 0x00 (0000ms, 0435ms total)
T12C4 000:616 JLINK_WriteReg(R9, 0x20000160)  returns 0x00 (0000ms, 0435ms total)
T12C4 000:616 JLINK_WriteReg(R10, 0x00000000)  returns 0x00 (0000ms, 0435ms total)
T12C4 000:616 JLINK_WriteReg(R11, 0x00000000)  returns 0x00 (0000ms, 0435ms total)
T12C4 000:616 JLINK_WriteReg(R12, 0x00000000)  returns 0x00 (0000ms, 0435ms total)
T12C4 000:616 JLINK_WriteReg(R13, 0x20000800)  returns 0x00 (0000ms, 0435ms total)
T12C4 000:616 JLINK_WriteReg(R14, 0x20000001)  returns 0x00 (0000ms, 0435ms total)
T12C4 000:616 JLINK_WriteReg(R15, 0x200000F4)  returns 0x00 (0000ms, 0435ms total)
T12C4 000:616 JLINK_WriteReg(XPSR, 0x01000000)  returns 0x00 (0000ms, 0435ms total)
T12C4 000:616 JLINK_WriteReg(MSP, 0x20000800)  returns 0x00 (0000ms, 0435ms total)
T12C4 000:616 JLINK_WriteReg(PSP, 0x20000800)  returns 0x00 (0000ms, 0435ms total)
T12C4 000:616 JLINK_WriteReg(CFBP, 0x00000000)  returns 0x00 (0000ms, 0435ms total)
T12C4 000:616 JLINK_SetBPEx(Addr = 0x20000000, Type = 0xFFFFFFF2)  returns 0x00000005 (0000ms, 0435ms total)
T12C4 000:616 JLINK_Go() (0003ms, 0438ms total)
T12C4 000:619 JLINK_IsHalted()  returns FALSE (0001ms, 0439ms total)
T12C4 000:639 JLINK_IsHalted()  returns FALSE (0001ms, 0439ms total)
T12C4 000:641 JLINK_IsHalted()  returns FALSE (0001ms, 0439ms total)
T12C4 000:643 JLINK_IsHalted()  returns FALSE (0001ms, 0439ms total)
T12C4 000:645 JLINK_IsHalted()  returns FALSE (0001ms, 0439ms total)
T12C4 000:647 JLINK_IsHalted()  returns FALSE (0001ms, 0439ms total)
T12C4 000:649 JLINK_IsHalted()  returns FALSE (0001ms, 0439ms total)
T12C4 000:651 JLINK_IsHalted() -- CPU_ReadMem(2 bytes @ 0x20000000)  returns TRUE (0006ms, 0444ms total)
T12C4 000:657 JLINK_ReadReg(R15)  returns 0x20000000 (0000ms, 0438ms total)
T12C4 000:657 JLINK_ClrBPEx(BPHandle = 0x00000005)  returns 0x00 (0000ms, 0438ms total)
T12C4 000:657 JLINK_ReadReg(R0)  returns 0x00000000 (0000ms, 0438ms total)
T12C4 000:657 JLINK_WriteMem(0x20000164, 0x0400 Bytes, ...) -- Data:  21 F0 04 01 4F F0 E0 22 11 61 70 47 00 00 FA 05 ... -- CPU_WriteMem(1024 bytes @ 0x20000164)  returns 0x400 (0006ms, 0444ms total)
T12C4 000:663 JLINK_WriteReg(R0, 0x08000400)  returns 0x00 (0000ms, 0444ms total)
T12C4 000:663 JLINK_WriteReg(R1, 0x00000400)  returns 0x00 (0000ms, 0444ms total)
T12C4 000:663 JLINK_WriteReg(R2, 0x20000164)  returns 0x00 (0000ms, 0444ms total)
T12C4 000:663 JLINK_WriteReg(R3, 0x00000000)  returns 0x00 (0000ms, 0444ms total)
T12C4 000:663 JLINK_WriteReg(R4, 0x00000000)  returns 0x00 (0000ms, 0444ms total)
T12C4 000:663 JLINK_WriteReg(R5, 0x00000000)  returns 0x00 (0000ms, 0444ms total)
T12C4 000:663 JLINK_WriteReg(R6, 0x00000000)  returns 0x00 (0000ms, 0444ms total)
T12C4 000:663 JLINK_WriteReg(R7, 0x00000000)  returns 0x00 (0000ms, 0444ms total)
T12C4 000:663 JLINK_WriteReg(R8, 0x00000000)  returns 0x00 (0000ms, 0444ms total)
T12C4 000:664 JLINK_WriteReg(R9, 0x20000160)  returns 0x00 (0000ms, 0444ms total)
T12C4 000:664 JLINK_WriteReg(R10, 0x00000000)  returns 0x00 (0000ms, 0444ms total)
T12C4 000:664 JLINK_WriteReg(R11, 0x00000000)  returns 0x00 (0000ms, 0444ms total)
T12C4 000:664 JLINK_WriteReg(R12, 0x00000000)  returns 0x00 (0000ms, 0444ms total)
T12C4 000:664 JLINK_WriteReg(R13, 0x20000800)  returns 0x00 (0000ms, 0444ms total)
T12C4 000:664 JLINK_WriteReg(R14, 0x20000001)  returns 0x00 (0000ms, 0444ms total)
T12C4 000:664 JLINK_WriteReg(R15, 0x200000F4)  returns 0x00 (0000ms, 0444ms total)
T12C4 000:664 JLINK_WriteReg(XPSR, 0x01000000)  returns 0x00 (0000ms, 0444ms total)
T12C4 000:664 JLINK_WriteReg(MSP, 0x20000800)  returns 0x00 (0000ms, 0444ms total)
T12C4 000:664 JLINK_WriteReg(PSP, 0x20000800)  returns 0x00 (0000ms, 0444ms total)
T12C4 000:664 JLINK_WriteReg(CFBP, 0x00000000)  returns 0x00 (0000ms, 0444ms total)
T12C4 000:664 JLINK_SetBPEx(Addr = 0x20000000, Type = 0xFFFFFFF2)  returns 0x00000006 (0000ms, 0444ms total)
T12C4 000:664 JLINK_Go() (0002ms, 0446ms total)
T12C4 000:666 JLINK_IsHalted()  returns FALSE (0001ms, 0447ms total)
T12C4 000:672 JLINK_IsHalted()  returns FALSE (0001ms, 0447ms total)
T12C4 000:674 JLINK_IsHalted()  returns FALSE (0001ms, 0447ms total)
T12C4 000:676 JLINK_IsHalted()  returns FALSE (0001ms, 0447ms total)
T12C4 000:678 JLINK_IsHalted()  returns FALSE (0001ms, 0447ms total)
T12C4 000:680 JLINK_IsHalted()  returns FALSE (0001ms, 0447ms total)
T12C4 000:683 JLINK_IsHalted()  returns FALSE (0001ms, 0447ms total)
T12C4 000:685 JLINK_IsHalted()  returns FALSE (0001ms, 0447ms total)
T12C4 000:687 JLINK_IsHalted()  returns FALSE (0001ms, 0447ms total)
T12C4 000:689 JLINK_IsHalted()  returns FALSE (0001ms, 0447ms total)
T12C4 000:691 JLINK_IsHalted()  returns FALSE (0001ms, 0447ms total)
T12C4 000:693 JLINK_IsHalted()  returns FALSE (0001ms, 0447ms total)
T12C4 000:695 JLINK_IsHalted()  returns FALSE (0001ms, 0447ms total)
T12C4 000:697 JLINK_IsHalted() -- CPU_ReadMem(2 bytes @ 0x20000000)  returns TRUE (0006ms, 0452ms total)
T12C4 000:703 JLINK_ReadReg(R15)  returns 0x20000000 (0000ms, 0446ms total)
T12C4 000:703 JLINK_ClrBPEx(BPHandle = 0x00000006)  returns 0x00 (0000ms, 0446ms total)
T12C4 000:703 JLINK_ReadReg(R0)  returns 0x00000000 (0000ms, 0446ms total)
T12C4 000:703 JLINK_WriteMem(0x20000164, 0x0400 Bytes, ...) -- Data:  CB 4A 11 60 11 46 09 68 21 F4 80 21 11 60 B0 F5 ... -- CPU_WriteMem(1024 bytes @ 0x20000164)  returns 0x400 (0006ms, 0452ms total)
T12C4 000:709 JLINK_WriteReg(R0, 0x08000800)  returns 0x00 (0000ms, 0452ms total)
T12C4 000:709 JLINK_WriteReg(R1, 0x00000400)  returns 0x00 (0000ms, 0452ms total)
T12C4 000:709 JLINK_WriteReg(R2, 0x20000164)  returns 0x00 (0000ms, 0452ms total)
T12C4 000:709 JLINK_WriteReg(R3, 0x00000000)  returns 0x00 (0000ms, 0452ms total)
T12C4 000:709 JLINK_WriteReg(R4, 0x00000000)  returns 0x00 (0000ms, 0452ms total)
T12C4 000:709 JLINK_WriteReg(R5, 0x00000000)  returns 0x00 (0000ms, 0452ms total)
T12C4 000:709 JLINK_WriteReg(R6, 0x00000000)  returns 0x00 (0000ms, 0452ms total)
T12C4 000:709 JLINK_WriteReg(R7, 0x00000000)  returns 0x00 (0000ms, 0452ms total)
T12C4 000:709 JLINK_WriteReg(R8, 0x00000000)  returns 0x00 (0000ms, 0452ms total)
T12C4 000:709 JLINK_WriteReg(R9, 0x20000160)  returns 0x00 (0000ms, 0452ms total)
T12C4 000:709 JLINK_WriteReg(R10, 0x00000000)  returns 0x00 (0000ms, 0452ms total)
T12C4 000:709 JLINK_WriteReg(R11, 0x00000000)  returns 0x00 (0000ms, 0452ms total)
T12C4 000:709 JLINK_WriteReg(R12, 0x00000000)  returns 0x00 (0000ms, 0452ms total)
T12C4 000:709 JLINK_WriteReg(R13, 0x20000800)  returns 0x00 (0000ms, 0452ms total)
T12C4 000:709 JLINK_WriteReg(R14, 0x20000001)  returns 0x00 (0000ms, 0452ms total)
T12C4 000:709 JLINK_WriteReg(R15, 0x200000F4)  returns 0x00 (0000ms, 0452ms total)
T12C4 000:709 JLINK_WriteReg(XPSR, 0x01000000)  returns 0x00 (0000ms, 0452ms total)
T12C4 000:709 JLINK_WriteReg(MSP, 0x20000800)  returns 0x00 (0000ms, 0452ms total)
T12C4 000:709 JLINK_WriteReg(PSP, 0x20000800)  returns 0x00 (0001ms, 0453ms total)
T12C4 000:710 JLINK_WriteReg(CFBP, 0x00000000)  returns 0x00 (0000ms, 0453ms total)
T12C4 000:710 JLINK_SetBPEx(Addr = 0x20000000, Type = 0xFFFFFFF2)  returns 0x00000007 (0000ms, 0453ms total)
T12C4 000:710 JLINK_Go() (0002ms, 0455ms total)
T12C4 000:712 JLINK_IsHalted()  returns FALSE (0001ms, 0456ms total)
T12C4 000:719 JLINK_IsHalted()  returns FALSE (0001ms, 0456ms total)
T12C4 000:721 JLINK_IsHalted()  returns FALSE (0001ms, 0456ms total)
T12C4 000:723 JLINK_IsHalted()  returns FALSE (0001ms, 0456ms total)
T12C4 000:725 JLINK_IsHalted()  returns FALSE (0001ms, 0456ms total)
T12C4 000:727 JLINK_IsHalted()  returns FALSE (0001ms, 0456ms total)
T12C4 000:729 JLINK_IsHalted()  returns FALSE (0001ms, 0456ms total)
T12C4 000:731 JLINK_IsHalted()  returns FALSE (0001ms, 0456ms total)
T12C4 000:733 JLINK_IsHalted()  returns FALSE (0001ms, 0456ms total)
T12C4 000:735 JLINK_IsHalted()  returns FALSE (0001ms, 0456ms total)
T12C4 000:737 JLINK_IsHalted()  returns FALSE (0001ms, 0456ms total)
T12C4 000:739 JLINK_IsHalted()  returns FALSE (0001ms, 0456ms total)
T12C4 000:741 JLINK_IsHalted()  returns FALSE (0001ms, 0456ms total)
T12C4 000:744 JLINK_IsHalted() -- CPU_ReadMem(2 bytes @ 0x20000000)  returns TRUE (0006ms, 0461ms total)
T12C4 000:750 JLINK_ReadReg(R15)  returns 0x20000000 (0000ms, 0455ms total)
T12C4 000:750 JLINK_ClrBPEx(BPHandle = 0x00000007)  returns 0x00 (0000ms, 0455ms total)
T12C4 000:750 JLINK_ReadReg(R0)  returns 0x00000000 (0000ms, 0455ms total)
T12C4 000:750 JLINK_WriteMem(0x20000164, 0x0400 Bytes, ...) -- Data:  20 20 FF F7 6A FF 7C E0 DA 48 84 42 08 D1 01 21 ... -- CPU_WriteMem(1024 bytes @ 0x20000164)  returns 0x400 (0007ms, 0462ms total)
T12C4 000:757 JLINK_WriteReg(R0, 0x08000C00)  returns 0x00 (0000ms, 0462ms total)
T12C4 000:757 JLINK_WriteReg(R1, 0x00000400)  returns 0x00 (0000ms, 0462ms total)
T12C4 000:757 JLINK_WriteReg(R2, 0x20000164)  returns 0x00 (0000ms, 0462ms total)
T12C4 000:757 JLINK_WriteReg(R3, 0x00000000)  returns 0x00 (0000ms, 0462ms total)
T12C4 000:757 JLINK_WriteReg(R4, 0x00000000)  returns 0x00 (0000ms, 0462ms total)
T12C4 000:757 JLINK_WriteReg(R5, 0x00000000)  returns 0x00 (0000ms, 0462ms total)
T12C4 000:757 JLINK_WriteReg(R6, 0x00000000)  returns 0x00 (0000ms, 0462ms total)
T12C4 000:757 JLINK_WriteReg(R7, 0x00000000)  returns 0x00 (0000ms, 0462ms total)
T12C4 000:757 JLINK_WriteReg(R8, 0x00000000)  returns 0x00 (0000ms, 0462ms total)
T12C4 000:757 JLINK_WriteReg(R9, 0x20000160)  returns 0x00 (0000ms, 0462ms total)
T12C4 000:757 JLINK_WriteReg(R10, 0x00000000)  returns 0x00 (0000ms, 0462ms total)
T12C4 000:757 JLINK_WriteReg(R11, 0x00000000)  returns 0x00 (0000ms, 0462ms total)
T12C4 000:757 JLINK_WriteReg(R12, 0x00000000)  returns 0x00 (0000ms, 0462ms total)
T12C4 000:757 JLINK_WriteReg(R13, 0x20000800)  returns 0x00 (0000ms, 0462ms total)
T12C4 000:757 JLINK_WriteReg(R14, 0x20000001)  returns 0x00 (0000ms, 0462ms total)
T12C4 000:757 JLINK_WriteReg(R15, 0x200000F4)  returns 0x00 (0000ms, 0462ms total)
T12C4 000:757 JLINK_WriteReg(XPSR, 0x01000000)  returns 0x00 (0000ms, 0462ms total)
T12C4 000:757 JLINK_WriteReg(MSP, 0x20000800)  returns 0x00 (0000ms, 0462ms total)
T12C4 000:757 JLINK_WriteReg(PSP, 0x20000800)  returns 0x00 (0000ms, 0462ms total)
T12C4 000:757 JLINK_WriteReg(CFBP, 0x00000000)  returns 0x00 (0000ms, 0462ms total)
T12C4 000:757 JLINK_SetBPEx(Addr = 0x20000000, Type = 0xFFFFFFF2)  returns 0x00000008 (0000ms, 0462ms total)
T12C4 000:757 JLINK_Go() (0003ms, 0465ms total)
T12C4 000:760 JLINK_IsHalted()  returns FALSE (0001ms, 0466ms total)
T12C4 000:762 JLINK_IsHalted()  returns FALSE (0001ms, 0466ms total)
T12C4 000:764 JLINK_IsHalted()  returns FALSE (0001ms, 0466ms total)
T12C4 000:766 JLINK_IsHalted()  returns FALSE (0001ms, 0466ms total)
T12C4 000:768 JLINK_IsHalted()  returns FALSE (0001ms, 0466ms total)
T12C4 000:770 JLINK_IsHalted()  returns FALSE (0001ms, 0466ms total)
T12C4 000:772 JLINK_IsHalted()  returns FALSE (0001ms, 0466ms total)
T12C4 000:774 JLINK_IsHalted()  returns FALSE (0001ms, 0466ms total)
T12C4 000:778 JLINK_IsHalted()  returns FALSE (0001ms, 0466ms total)
T12C4 000:780 JLINK_IsHalted()  returns FALSE (0001ms, 0466ms total)
T12C4 000:782 JLINK_IsHalted()  returns FALSE (0001ms, 0466ms total)
T12C4 000:784 JLINK_IsHalted()  returns FALSE (0001ms, 0466ms total)
T12C4 000:786 JLINK_IsHalted()  returns FALSE (0001ms, 0466ms total)
T12C4 000:788 JLINK_IsHalted()  returns FALSE (0001ms, 0466ms total)
T12C4 000:790 JLINK_IsHalted() -- CPU_ReadMem(2 bytes @ 0x20000000)  returns TRUE (0006ms, 0471ms total)
T12C4 000:796 JLINK_ReadReg(R15)  returns 0x20000000 (0000ms, 0465ms total)
T12C4 000:796 JLINK_ClrBPEx(BPHandle = 0x00000008)  returns 0x00 (0000ms, 0465ms total)
T12C4 000:796 JLINK_ReadReg(R0)  returns 0x00000000 (0000ms, 0465ms total)
T12C4 000:796 JLINK_WriteMem(0x20000164, 0x0400 Bytes, ...) -- Data:  70 47 F0 B5 0C 46 15 46 00 22 00 21 00 26 07 8C ... -- CPU_WriteMem(1024 bytes @ 0x20000164)  returns 0x400 (0006ms, 0471ms total)
T12C4 000:802 JLINK_WriteReg(R0, 0x08001000)  returns 0x00 (0000ms, 0471ms total)
T12C4 000:802 JLINK_WriteReg(R1, 0x00000400)  returns 0x00 (0000ms, 0471ms total)
T12C4 000:802 JLINK_WriteReg(R2, 0x20000164)  returns 0x00 (0000ms, 0471ms total)
T12C4 000:802 JLINK_WriteReg(R3, 0x00000000)  returns 0x00 (0000ms, 0471ms total)
T12C4 000:802 JLINK_WriteReg(R4, 0x00000000)  returns 0x00 (0000ms, 0471ms total)
T12C4 000:802 JLINK_WriteReg(R5, 0x00000000)  returns 0x00 (0000ms, 0471ms total)
T12C4 000:802 JLINK_WriteReg(R6, 0x00000000)  returns 0x00 (0000ms, 0471ms total)
T12C4 000:802 JLINK_WriteReg(R7, 0x00000000)  returns 0x00 (0001ms, 0472ms total)
T12C4 000:803 JLINK_WriteReg(R8, 0x00000000)  returns 0x00 (0000ms, 0472ms total)
T12C4 000:803 JLINK_WriteReg(R9, 0x20000160)  returns 0x00 (0000ms, 0472ms total)
T12C4 000:803 JLINK_WriteReg(R10, 0x00000000)  returns 0x00 (0000ms, 0472ms total)
T12C4 000:803 JLINK_WriteReg(R11, 0x00000000)  returns 0x00 (0000ms, 0472ms total)
T12C4 000:803 JLINK_WriteReg(R12, 0x00000000)  returns 0x00 (0000ms, 0472ms total)
T12C4 000:803 JLINK_WriteReg(R13, 0x20000800)  returns 0x00 (0000ms, 0472ms total)
T12C4 000:803 JLINK_WriteReg(R14, 0x20000001)  returns 0x00 (0000ms, 0472ms total)
T12C4 000:803 JLINK_WriteReg(R15, 0x200000F4)  returns 0x00 (0000ms, 0472ms total)
T12C4 000:803 JLINK_WriteReg(XPSR, 0x01000000)  returns 0x00 (0000ms, 0472ms total)
T12C4 000:803 JLINK_WriteReg(MSP, 0x20000800)  returns 0x00 (0000ms, 0472ms total)
T12C4 000:803 JLINK_WriteReg(PSP, 0x20000800)  returns 0x00 (0000ms, 0472ms total)
T12C4 000:803 JLINK_WriteReg(CFBP, 0x00000000)  returns 0x00 (0000ms, 0472ms total)
T12C4 000:803 JLINK_SetBPEx(Addr = 0x20000000, Type = 0xFFFFFFF2)  returns 0x00000009 (0000ms, 0472ms total)
T12C4 000:803 JLINK_Go() (0002ms, 0474ms total)
T12C4 000:805 JLINK_IsHalted()  returns FALSE (0001ms, 0475ms total)
T12C4 000:810 JLINK_IsHalted()  returns FALSE (0001ms, 0475ms total)
T12C4 000:812 JLINK_IsHalted()  returns FALSE (0001ms, 0475ms total)
T12C4 000:814 JLINK_IsHalted()  returns FALSE (0001ms, 0475ms total)
T12C4 000:816 JLINK_IsHalted()  returns FALSE (0001ms, 0475ms total)
T12C4 000:818 JLINK_IsHalted()  returns FALSE (0001ms, 0475ms total)
T12C4 000:820 JLINK_IsHalted()  returns FALSE (0001ms, 0475ms total)
T12C4 000:825 JLINK_IsHalted()  returns FALSE (0001ms, 0475ms total)
T12C4 000:827 JLINK_IsHalted()  returns FALSE (0001ms, 0475ms total)
T12C4 000:829 JLINK_IsHalted()  returns FALSE (0001ms, 0475ms total)
T12C4 000:831 JLINK_IsHalted()  returns FALSE (0001ms, 0475ms total)
T12C4 000:833 JLINK_IsHalted()  returns FALSE (0001ms, 0475ms total)
T12C4 000:835 JLINK_IsHalted()  returns FALSE (0001ms, 0475ms total)
T12C4 000:837 JLINK_IsHalted() -- CPU_ReadMem(2 bytes @ 0x20000000)  returns TRUE (0006ms, 0480ms total)
T12C4 000:843 JLINK_ReadReg(R15)  returns 0x20000000 (0000ms, 0474ms total)
T12C4 000:843 JLINK_ClrBPEx(BPHandle = 0x00000009)  returns 0x00 (0000ms, 0474ms total)
T12C4 000:843 JLINK_ReadReg(R0)  returns 0x00000000 (0000ms, 0474ms total)
T12C4 000:843 JLINK_WriteMem(0x20000164, 0x0400 Bytes, ...) -- Data:  83 81 70 47 81 82 70 47 41 EA 02 03 A0 F8 48 30 ... -- CPU_WriteMem(1024 bytes @ 0x20000164)  returns 0x400 (0007ms, 0481ms total)
T12C4 000:850 JLINK_WriteReg(R0, 0x08001400)  returns 0x00 (0000ms, 0481ms total)
T12C4 000:850 JLINK_WriteReg(R1, 0x00000400)  returns 0x00 (0000ms, 0481ms total)
T12C4 000:850 JLINK_WriteReg(R2, 0x20000164)  returns 0x00 (0000ms, 0481ms total)
T12C4 000:850 JLINK_WriteReg(R3, 0x00000000)  returns 0x00 (0000ms, 0481ms total)
T12C4 000:850 JLINK_WriteReg(R4, 0x00000000)  returns 0x00 (0000ms, 0481ms total)
T12C4 000:850 JLINK_WriteReg(R5, 0x00000000)  returns 0x00 (0000ms, 0481ms total)
T12C4 000:850 JLINK_WriteReg(R6, 0x00000000)  returns 0x00 (0000ms, 0481ms total)
T12C4 000:850 JLINK_WriteReg(R7, 0x00000000)  returns 0x00 (0000ms, 0481ms total)
T12C4 000:850 JLINK_WriteReg(R8, 0x00000000)  returns 0x00 (0000ms, 0481ms total)
T12C4 000:850 JLINK_WriteReg(R9, 0x20000160)  returns 0x00 (0000ms, 0481ms total)
T12C4 000:850 JLINK_WriteReg(R10, 0x00000000)  returns 0x00 (0000ms, 0481ms total)
T12C4 000:850 JLINK_WriteReg(R11, 0x00000000)  returns 0x00 (0000ms, 0481ms total)
T12C4 000:850 JLINK_WriteReg(R12, 0x00000000)  returns 0x00 (0000ms, 0481ms total)
T12C4 000:850 JLINK_WriteReg(R13, 0x20000800)  returns 0x00 (0000ms, 0481ms total)
T12C4 000:850 JLINK_WriteReg(R14, 0x20000001)  returns 0x00 (0000ms, 0481ms total)
T12C4 000:850 JLINK_WriteReg(R15, 0x200000F4)  returns 0x00 (0000ms, 0481ms total)
T12C4 000:850 JLINK_WriteReg(XPSR, 0x01000000)  returns 0x00 (0000ms, 0481ms total)
T12C4 000:850 JLINK_WriteReg(MSP, 0x20000800)  returns 0x00 (0000ms, 0481ms total)
T12C4 000:850 JLINK_WriteReg(PSP, 0x20000800)  returns 0x00 (0000ms, 0481ms total)
T12C4 000:850 JLINK_WriteReg(CFBP, 0x00000000)  returns 0x00 (0000ms, 0481ms total)
T12C4 000:850 JLINK_SetBPEx(Addr = 0x20000000, Type = 0xFFFFFFF2)  returns 0x0000000A (0000ms, 0481ms total)
T12C4 000:850 JLINK_Go() (0003ms, 0484ms total)
T12C4 000:853 JLINK_IsHalted()  returns FALSE (0001ms, 0485ms total)
T12C4 000:855 JLINK_IsHalted()  returns FALSE (0001ms, 0485ms total)
T12C4 000:858 JLINK_IsHalted()  returns FALSE (0001ms, 0485ms total)
T12C4 000:860 JLINK_IsHalted()  returns FALSE (0001ms, 0485ms total)
T12C4 000:862 JLINK_IsHalted()  returns FALSE (0001ms, 0485ms total)
T12C4 000:864 JLINK_IsHalted()  returns FALSE (0001ms, 0485ms total)
T12C4 000:866 JLINK_IsHalted()  returns FALSE (0001ms, 0485ms total)
T12C4 000:868 JLINK_IsHalted()  returns FALSE (0001ms, 0485ms total)
T12C4 000:871 JLINK_IsHalted()  returns FALSE (0001ms, 0485ms total)
T12C4 000:873 JLINK_IsHalted()  returns FALSE (0001ms, 0485ms total)
T12C4 000:875 JLINK_IsHalted()  returns FALSE (0001ms, 0485ms total)
T12C4 000:877 JLINK_IsHalted()  returns FALSE (0001ms, 0485ms total)
T12C4 000:879 JLINK_IsHalted()  returns FALSE (0001ms, 0485ms total)
T12C4 000:881 JLINK_IsHalted()  returns FALSE (0001ms, 0485ms total)
T12C4 000:883 JLINK_IsHalted()  returns FALSE (0001ms, 0485ms total)
T12C4 000:888 JLINK_IsHalted() -- CPU_ReadMem(2 bytes @ 0x20000000)  returns TRUE (0006ms, 0490ms total)
T12C4 000:894 JLINK_ReadReg(R15)  returns 0x20000000 (0000ms, 0484ms total)
T12C4 000:894 JLINK_ClrBPEx(BPHandle = 0x0000000A)  returns 0x00 (0000ms, 0484ms total)
T12C4 000:894 JLINK_ReadReg(R0)  returns 0x00000000 (0000ms, 0484ms total)
T12C4 000:894 JLINK_WriteMem(0x20000164, 0x0400 Bytes, ...) -- Data:  30 BD 70 B5 03 46 00 20 00 24 18 46 18 30 01 25 ... -- CPU_WriteMem(1024 bytes @ 0x20000164)  returns 0x400 (0006ms, 0490ms total)
T12C4 000:900 JLINK_WriteReg(R0, 0x08001800)  returns 0x00 (0000ms, 0490ms total)
T12C4 000:900 JLINK_WriteReg(R1, 0x00000400)  returns 0x00 (0000ms, 0490ms total)
T12C4 000:900 JLINK_WriteReg(R2, 0x20000164)  returns 0x00 (0000ms, 0490ms total)
T12C4 000:900 JLINK_WriteReg(R3, 0x00000000)  returns 0x00 (0000ms, 0490ms total)
T12C4 000:900 JLINK_WriteReg(R4, 0x00000000)  returns 0x00 (0000ms, 0490ms total)
T12C4 000:900 JLINK_WriteReg(R5, 0x00000000)  returns 0x00 (0000ms, 0490ms total)
T12C4 000:900 JLINK_WriteReg(R6, 0x00000000)  returns 0x00 (0000ms, 0490ms total)
T12C4 000:900 JLINK_WriteReg(R7, 0x00000000)  returns 0x00 (0001ms, 0491ms total)
T12C4 000:901 JLINK_WriteReg(R8, 0x00000000)  returns 0x00 (0000ms, 0491ms total)
T12C4 000:901 JLINK_WriteReg(R9, 0x20000160)  returns 0x00 (0000ms, 0491ms total)
T12C4 000:901 JLINK_WriteReg(R10, 0x00000000)  returns 0x00 (0000ms, 0491ms total)
T12C4 000:901 JLINK_WriteReg(R11, 0x00000000)  returns 0x00 (0000ms, 0491ms total)
T12C4 000:901 JLINK_WriteReg(R12, 0x00000000)  returns 0x00 (0000ms, 0491ms total)
T12C4 000:901 JLINK_WriteReg(R13, 0x20000800)  returns 0x00 (0000ms, 0491ms total)
T12C4 000:901 JLINK_WriteReg(R14, 0x20000001)  returns 0x00 (0000ms, 0491ms total)
T12C4 000:901 JLINK_WriteReg(R15, 0x200000F4)  returns 0x00 (0000ms, 0491ms total)
T12C4 000:901 JLINK_WriteReg(XPSR, 0x01000000)  returns 0x00 (0000ms, 0491ms total)
T12C4 000:901 JLINK_WriteReg(MSP, 0x20000800)  returns 0x00 (0000ms, 0491ms total)
T12C4 000:901 JLINK_WriteReg(PSP, 0x20000800)  returns 0x00 (0000ms, 0491ms total)
T12C4 000:901 JLINK_WriteReg(CFBP, 0x00000000)  returns 0x00 (0000ms, 0491ms total)
T12C4 000:901 JLINK_SetBPEx(Addr = 0x20000000, Type = 0xFFFFFFF2)  returns 0x0000000B (0000ms, 0491ms total)
T12C4 000:901 JLINK_Go() (0002ms, 0493ms total)
T12C4 000:903 JLINK_IsHalted()  returns FALSE (0001ms, 0494ms total)
T12C4 000:905 JLINK_IsHalted()  returns FALSE (0000ms, 0493ms total)
T12C4 000:906 JLINK_IsHalted()  returns FALSE (0000ms, 0493ms total)
T12C4 000:907 JLINK_IsHalted()  returns FALSE (0000ms, 0493ms total)
T12C4 000:908 JLINK_IsHalted()  returns FALSE (0000ms, 0493ms total)
T12C4 000:909 JLINK_IsHalted()  returns FALSE (0000ms, 0493ms total)
T12C4 000:910 JLINK_IsHalted()  returns FALSE (0000ms, 0493ms total)
T12C4 000:911 JLINK_IsHalted()  returns FALSE (0000ms, 0493ms total)
T12C4 000:912 JLINK_IsHalted()  returns FALSE (0000ms, 0493ms total)
T12C4 000:913 JLINK_IsHalted()  returns FALSE (0000ms, 0493ms total)
T12C4 000:914 JLINK_IsHalted()  returns FALSE (0000ms, 0493ms total)
T12C4 000:917 JLINK_IsHalted()  returns FALSE (0001ms, 0494ms total)
T12C4 000:919 JLINK_IsHalted()  returns FALSE (0001ms, 0494ms total)
T12C4 000:921 JLINK_IsHalted()  returns FALSE (0001ms, 0494ms total)
T12C4 000:923 JLINK_IsHalted()  returns FALSE (0001ms, 0494ms total)
T12C4 000:925 JLINK_IsHalted()  returns FALSE (0001ms, 0494ms total)
T12C4 000:927 JLINK_IsHalted()  returns FALSE (0001ms, 0494ms total)
T12C4 000:929 JLINK_IsHalted()  returns FALSE (0001ms, 0494ms total)
T12C4 000:931 JLINK_IsHalted()  returns FALSE (0001ms, 0494ms total)
T12C4 000:933 JLINK_IsHalted()  returns FALSE (0001ms, 0494ms total)
T12C4 000:935 JLINK_IsHalted() -- CPU_ReadMem(2 bytes @ 0x20000000)  returns TRUE (0006ms, 0499ms total)
T12C4 000:941 JLINK_ReadReg(R15)  returns 0x20000000 (0000ms, 0493ms total)
T12C4 000:941 JLINK_ClrBPEx(BPHandle = 0x0000000B)  returns 0x00 (0000ms, 0493ms total)
T12C4 000:941 JLINK_ReadReg(R0)  returns 0x00000000 (0000ms, 0493ms total)
T12C4 000:941 JLINK_WriteMem(0x20000164, 0x0400 Bytes, ...) -- Data:  70 47 81 89 41 F0 01 01 81 81 70 47 02 8B D2 B2 ... -- CPU_WriteMem(1024 bytes @ 0x20000164)  returns 0x400 (0007ms, 0500ms total)
T12C4 000:948 JLINK_WriteReg(R0, 0x08001C00)  returns 0x00 (0000ms, 0500ms total)
T12C4 000:948 JLINK_WriteReg(R1, 0x00000400)  returns 0x00 (0000ms, 0500ms total)
T12C4 000:948 JLINK_WriteReg(R2, 0x20000164)  returns 0x00 (0000ms, 0500ms total)
T12C4 000:948 JLINK_WriteReg(R3, 0x00000000)  returns 0x00 (0000ms, 0500ms total)
T12C4 000:948 JLINK_WriteReg(R4, 0x00000000)  returns 0x00 (0000ms, 0500ms total)
T12C4 000:948 JLINK_WriteReg(R5, 0x00000000)  returns 0x00 (0000ms, 0500ms total)
T12C4 000:948 JLINK_WriteReg(R6, 0x00000000)  returns 0x00 (0000ms, 0500ms total)
T12C4 000:948 JLINK_WriteReg(R7, 0x00000000)  returns 0x00 (0000ms, 0500ms total)
T12C4 000:948 JLINK_WriteReg(R8, 0x00000000)  returns 0x00 (0000ms, 0500ms total)
T12C4 000:948 JLINK_WriteReg(R9, 0x20000160)  returns 0x00 (0000ms, 0500ms total)
T12C4 000:948 JLINK_WriteReg(R10, 0x00000000)  returns 0x00 (0000ms, 0500ms total)
T12C4 000:948 JLINK_WriteReg(R11, 0x00000000)  returns 0x00 (0000ms, 0500ms total)
T12C4 000:948 JLINK_WriteReg(R12, 0x00000000)  returns 0x00 (0000ms, 0500ms total)
T12C4 000:948 JLINK_WriteReg(R13, 0x20000800)  returns 0x00 (0000ms, 0500ms total)
T12C4 000:948 JLINK_WriteReg(R14, 0x20000001)  returns 0x00 (0000ms, 0500ms total)
T12C4 000:948 JLINK_WriteReg(R15, 0x200000F4)  returns 0x00 (0000ms, 0500ms total)
T12C4 000:948 JLINK_WriteReg(XPSR, 0x01000000)  returns 0x00 (0000ms, 0500ms total)
T12C4 000:948 JLINK_WriteReg(MSP, 0x20000800)  returns 0x00 (0000ms, 0500ms total)
T12C4 000:948 JLINK_WriteReg(PSP, 0x20000800)  returns 0x00 (0000ms, 0500ms total)
T12C4 000:948 JLINK_WriteReg(CFBP, 0x00000000)  returns 0x00 (0000ms, 0500ms total)
T12C4 000:948 JLINK_SetBPEx(Addr = 0x20000000, Type = 0xFFFFFFF2)  returns 0x0000000C (0000ms, 0500ms total)
T12C4 000:948 JLINK_Go() (0003ms, 0503ms total)
T12C4 000:951 JLINK_IsHalted()  returns FALSE (0001ms, 0504ms total)
T12C4 000:956 JLINK_IsHalted()  returns FALSE (0001ms, 0504ms total)
T12C4 000:958 JLINK_IsHalted()  returns FALSE (0001ms, 0504ms total)
T12C4 000:960 JLINK_IsHalted()  returns FALSE (0001ms, 0504ms total)
T12C4 000:962 JLINK_IsHalted()  returns FALSE (0001ms, 0504ms total)
T12C4 000:966 JLINK_IsHalted()  returns FALSE (0001ms, 0504ms total)
T12C4 000:968 JLINK_IsHalted()  returns FALSE (0001ms, 0504ms total)
T12C4 000:970 JLINK_IsHalted()  returns FALSE (0001ms, 0504ms total)
T12C4 000:972 JLINK_IsHalted()  returns FALSE (0001ms, 0504ms total)
T12C4 000:974 JLINK_IsHalted()  returns FALSE (0001ms, 0504ms total)
T12C4 000:976 JLINK_IsHalted()  returns FALSE (0001ms, 0504ms total)
T12C4 000:979 JLINK_IsHalted()  returns FALSE (0001ms, 0504ms total)
T12C4 000:981 JLINK_IsHalted() -- CPU_ReadMem(2 bytes @ 0x20000000)  returns TRUE (0006ms, 0509ms total)
T12C4 000:987 JLINK_ReadReg(R15)  returns 0x20000000 (0000ms, 0503ms total)
T12C4 000:987 JLINK_ClrBPEx(BPHandle = 0x0000000C)  returns 0x00 (0000ms, 0503ms total)
T12C4 000:987 JLINK_ReadReg(R0)  returns 0x00000000 (0000ms, 0503ms total)
T12C4 000:987 JLINK_WriteMem(0x20000164, 0x0400 Bytes, ...) -- Data:  C4 FB 10 BD 4F F4 E1 74 FF F7 42 FF FF F7 59 FF ... -- CPU_WriteMem(1024 bytes @ 0x20000164)  returns 0x400 (0007ms, 0510ms total)
T12C4 000:994 JLINK_WriteReg(R0, 0x08002000)  returns 0x00 (0000ms, 0510ms total)
T12C4 000:994 JLINK_WriteReg(R1, 0x00000320)  returns 0x00 (0000ms, 0510ms total)
T12C4 000:994 JLINK_WriteReg(R2, 0x20000164)  returns 0x00 (0000ms, 0510ms total)
T12C4 000:994 JLINK_WriteReg(R3, 0x00000000)  returns 0x00 (0000ms, 0510ms total)
T12C4 000:994 JLINK_WriteReg(R4, 0x00000000)  returns 0x00 (0000ms, 0510ms total)
T12C4 000:994 JLINK_WriteReg(R5, 0x00000000)  returns 0x00 (0000ms, 0510ms total)
T12C4 000:994 JLINK_WriteReg(R6, 0x00000000)  returns 0x00 (0000ms, 0510ms total)
T12C4 000:994 JLINK_WriteReg(R7, 0x00000000)  returns 0x00 (0000ms, 0510ms total)
T12C4 000:994 JLINK_WriteReg(R8, 0x00000000)  returns 0x00 (0000ms, 0510ms total)
T12C4 000:994 JLINK_WriteReg(R9, 0x20000160)  returns 0x00 (0000ms, 0510ms total)
T12C4 000:994 JLINK_WriteReg(R10, 0x00000000)  returns 0x00 (0000ms, 0510ms total)
T12C4 000:994 JLINK_WriteReg(R11, 0x00000000)  returns 0x00 (0000ms, 0510ms total)
T12C4 000:994 JLINK_WriteReg(R12, 0x00000000)  returns 0x00 (0000ms, 0510ms total)
T12C4 000:994 JLINK_WriteReg(R13, 0x20000800)  returns 0x00 (0000ms, 0510ms total)
T12C4 000:994 JLINK_WriteReg(R14, 0x20000001)  returns 0x00 (0000ms, 0510ms total)
T12C4 000:994 JLINK_WriteReg(R15, 0x200000F4)  returns 0x00 (0000ms, 0510ms total)
T12C4 000:994 JLINK_WriteReg(XPSR, 0x01000000)  returns 0x00 (0000ms, 0510ms total)
T12C4 000:994 JLINK_WriteReg(MSP, 0x20000800)  returns 0x00 (0000ms, 0510ms total)
T12C4 000:994 JLINK_WriteReg(PSP, 0x20000800)  returns 0x00 (0000ms, 0510ms total)
T12C4 000:994 JLINK_WriteReg(CFBP, 0x00000000)  returns 0x00 (0000ms, 0510ms total)
T12C4 000:994 JLINK_SetBPEx(Addr = 0x20000000, Type = 0xFFFFFFF2)  returns 0x0000000D (0000ms, 0510ms total)
T12C4 000:994 JLINK_Go() (0003ms, 0513ms total)
T12C4 000:997 JLINK_IsHalted()  returns FALSE (0001ms, 0514ms total)
T12C4 001:001 JLINK_IsHalted()  returns FALSE (0002ms, 0515ms total)
T12C4 001:004 JLINK_IsHalted()  returns FALSE (0001ms, 0514ms total)
T12C4 001:006 JLINK_IsHalted()  returns FALSE (0001ms, 0514ms total)
T12C4 001:008 JLINK_IsHalted()  returns FALSE (0001ms, 0514ms total)
T12C4 001:010 JLINK_IsHalted()  returns FALSE (0001ms, 0514ms total)
T12C4 001:012 JLINK_IsHalted()  returns FALSE (0001ms, 0514ms total)
T12C4 001:014 JLINK_IsHalted()  returns FALSE (0001ms, 0514ms total)
T12C4 001:016 JLINK_IsHalted()  returns FALSE (0001ms, 0514ms total)
T12C4 001:018 JLINK_IsHalted()  returns FALSE (0001ms, 0514ms total)
T12C4 001:020 JLINK_IsHalted()  returns FALSE (0001ms, 0514ms total)
T12C4 001:022 JLINK_IsHalted() -- CPU_ReadMem(2 bytes @ 0x20000000)  returns TRUE (0006ms, 0519ms total)
T12C4 001:028 JLINK_ReadReg(R15)  returns 0x20000000 (0000ms, 0513ms total)
T12C4 001:028 JLINK_ClrBPEx(BPHandle = 0x0000000D)  returns 0x00 (0000ms, 0513ms total)
T12C4 001:028 JLINK_ReadReg(R0)  returns 0x00000000 (0000ms, 0513ms total)
T12C4 001:028 JLINK_WriteReg(R0, 0x00000002)  returns 0x00 (0000ms, 0513ms total)
T12C4 001:028 JLINK_WriteReg(R1, 0x00000320)  returns 0x00 (0000ms, 0513ms total)
T12C4 001:028 JLINK_WriteReg(R2, 0x20000164)  returns 0x00 (0000ms, 0513ms total)
T12C4 001:028 JLINK_WriteReg(R3, 0x00000000)  returns 0x00 (0000ms, 0513ms total)
T12C4 001:028 JLINK_WriteReg(R4, 0x00000000)  returns 0x00 (0000ms, 0513ms total)
T12C4 001:028 JLINK_WriteReg(R5, 0x00000000)  returns 0x00 (0000ms, 0513ms total)
T12C4 001:028 JLINK_WriteReg(R6, 0x00000000)  returns 0x00 (0000ms, 0513ms total)
T12C4 001:028 JLINK_WriteReg(R7, 0x00000000)  returns 0x00 (0000ms, 0513ms total)
T12C4 001:028 JLINK_WriteReg(R8, 0x00000000)  returns 0x00 (0000ms, 0513ms total)
T12C4 001:028 JLINK_WriteReg(R9, 0x20000160)  returns 0x00 (0000ms, 0513ms total)
T12C4 001:028 JLINK_WriteReg(R10, 0x00000000)  returns 0x00 (0000ms, 0513ms total)
T12C4 001:028 JLINK_WriteReg(R11, 0x00000000)  returns 0x00 (0000ms, 0513ms total)
T12C4 001:028 JLINK_WriteReg(R12, 0x00000000)  returns 0x00 (0000ms, 0513ms total)
T12C4 001:028 JLINK_WriteReg(R13, 0x20000800)  returns 0x00 (0000ms, 0513ms total)
T12C4 001:028 JLINK_WriteReg(R14, 0x20000001)  returns 0x00 (0000ms, 0513ms total)
T12C4 001:028 JLINK_WriteReg(R15, 0x2000006A)  returns 0x00 (0000ms, 0513ms total)
T12C4 001:028 JLINK_WriteReg(XPSR, 0x01000000)  returns 0x00 (0000ms, 0513ms total)
T12C4 001:028 JLINK_WriteReg(MSP, 0x20000800)  returns 0x00 (0000ms, 0513ms total)
T12C4 001:028 JLINK_WriteReg(PSP, 0x20000800)  returns 0x00 (0000ms, 0513ms total)
T12C4 001:028 JLINK_WriteReg(CFBP, 0x00000000)  returns 0x00 (0000ms, 0513ms total)
T12C4 001:028 JLINK_SetBPEx(Addr = 0x20000000, Type = 0xFFFFFFF2)  returns 0x0000000E (0000ms, 0513ms total)
T12C4 001:028 JLINK_Go() (0003ms, 0516ms total)
T12C4 001:031 JLINK_IsHalted() -- CPU_ReadMem(2 bytes @ 0x20000000)  returns TRUE (0006ms, 0522ms total)
T12C4 001:037 JLINK_ReadReg(R15)  returns 0x20000000 (0000ms, 0516ms total)
T12C4 001:037 JLINK_ClrBPEx(BPHandle = 0x0000000E)  returns 0x00 (0000ms, 0516ms total)
T12C4 001:037 JLINK_ReadReg(R0)  returns 0x00000000 (0000ms, 0516ms total)
